!
! C:\Users\Solidworker\Documents\VNA\mmiller\20230801\20230816_20230801_1.S1P
!
! Touchstone 1.1 file saved by VNA.EXE V1.65 (www.ke5fx.com/gpib/readme.htm)
! 8/16/2023 2:57:24 PM
!
!    Source: HP8510C.07.10: Mar 30  1995 
!  Min freq: 1.100000E+011 Hz
!  Max freq: 1.700000E+011 Hz
!    Points: 201
!    Params: S11
!
!!!!!
# GHZ S MA R 50
109.9999999920000000 0.109667 23.659962 
110.2999999920000000 0.108284 62.655008 
110.5999999919999900 0.106791 101.639469 
110.8999999920000100 0.105287 140.564680 
111.1999999920000000 0.103643 179.432715 
111.4999999920000000 0.102023 -141.694173 
111.7999999920000000 0.100269 -102.866196 
112.0999999919999900 0.098509 -64.065037 
112.3999999920000100 0.096556 -25.314737 
112.6999999920000000 0.094564 13.435862 
112.9999999920000000 0.092405 52.156961 
113.2999999920000000 0.090167 90.865409 
113.5999999919999900 0.087711 129.586059 
113.8999999920000100 0.085132 168.322506 
114.1999999920000000 0.082407 -152.923720 
114.4999999920000000 0.079554 -114.152458 
114.7999999920000000 0.076504 -75.315185 
115.0999999919999900 0.073369 -36.443299 
115.3999999920000100 0.070070 2.505539 
115.6999999920000000 0.066693 41.527670 
115.9999999920000000 0.063179 80.631523 
116.2999999920000000 0.059635 119.853981 
116.5999999919999900 0.056018 159.186169 
116.8999999920000100 0.052402 -161.336210 
117.1999999920000000 0.048813 -121.726303 
117.4999999920000000 0.045261 -81.947746 
117.7999999920000000 0.041792 -41.982845 
118.0999999919999900 0.038449 -1.836434 
118.3999999920000100 0.035218 38.481220 
118.6999999920000000 0.032133 79.067584 
118.9999999920000000 0.029190 119.883722 
119.2999999920000000 0.026403 160.959679 
119.5999999919999900 0.023754 -157.606095 
119.8999999920000100 0.021242 -115.771239 
120.1999999920000000 0.018869 -73.416972 
120.4999999920000000 0.016638 -30.393788 
120.7999999920000000 0.014526 13.549063 
121.0999999919999900 0.012553 58.870157 
121.3999999920000100 0.010755 106.173946 
121.6999999920000000 0.009210 156.362809 
121.9999999920000000 0.008066 -149.685659 
122.2999999920000000 0.007559 -91.914268 
122.5999999919999900 0.007885 -33.043332 
122.8999999920000100 0.009042 23.235093 
123.1999999920000000 0.010840 75.481454 
123.4999999920000000 0.013105 124.180396 
123.7999999920000000 0.015699 170.385185 
124.0999999919999900 0.018543 -145.060599 
124.3999999920000100 0.021590 -101.643482 
124.6999999920000000 0.024800 -59.009412 
124.9999999920000000 0.028145 -16.911596 
125.2999999920000000 0.031581 24.784328 
125.5999999919999900 0.035081 66.211158 
125.8999999920000100 0.038611 107.419025 
126.1999999920000000 0.042149 148.495097 
126.4999999920000000 0.045663 -170.537290 
126.7999999920000000 0.049113 -129.642604 
127.0999999919999900 0.052490 -88.790292 
127.3999999920000100 0.055782 -47.979733 
127.6999999920000000 0.058950 -7.187562 
127.9999999920000000 0.061990 33.592276 
128.2999999920000100 0.064881 74.366258 
128.5999999919999900 0.067631 115.145649 
128.8999999920000100 0.070230 155.932600 
129.1999999919999900 0.072689 -163.264471 
129.4999999920000000 0.075017 -122.454431 
129.7999999920000100 0.077219 -81.631724 
130.0999999919999900 0.079312 -40.803798 
130.3999999920000100 0.081314 0.032258 
130.6999999919999900 0.083242 40.870994 
130.9999999920000000 0.085117 81.713017 
131.2999999920000100 0.086949 122.554287 
131.5999999919999900 0.088764 163.388960 
131.8999999920000100 0.090575 -155.781717 
132.1999999919999900 0.092398 -114.962163 
132.4999999920000000 0.094258 -74.160987 
132.7999999920000100 0.096154 -33.368541 
133.0999999919999900 0.098084 7.400859 
133.3999999920000100 0.100082 48.153359 
133.6999999919999900 0.102108 88.895415 
133.9999999920000000 0.104198 129.624285 
134.2999999920000100 0.106322 170.346051 
134.5999999919999900 0.108492 -148.936394 
134.8999999920000100 0.110679 -108.214500 
135.1999999919999900 0.112893 -67.492121 
135.4999999920000000 0.115102 -26.758665 
135.7999999920000100 0.117312 13.992860 
136.0999999919999900 0.119493 54.760430 
136.3999999920000100 0.121654 95.558460 
136.6999999919999900 0.123747 136.387677 
136.9999999920000000 0.125793 177.253699 
137.2999999920000100 0.127756 -141.836620 
137.5999999919999900 0.129644 -100.885389 
137.8999999920000100 0.131448 -59.890895 
138.1999999919999900 0.133171 -18.848096 
138.4999999920000000 0.134765 22.246837 
138.7999999920000100 0.136295 63.389050 
139.0999999919999900 0.137706 104.581353 
139.3999999920000100 0.139032 145.824656 
139.6999999919999900 0.140254 -172.888127 
139.9999999920000000 0.141408 -131.551909 
140.2999999920000100 0.142480 -90.177944 
140.5999999919999900 0.143470 -48.771934 
140.8999999920000100 0.144384 -7.331561 
141.1999999919999900 0.145266 34.137427 
141.4999999920000000 0.146060 75.624778 
141.7999999920000100 0.146828 117.126908 
142.0999999919999900 0.147541 158.638719 
142.3999999920000100 0.148202 -159.839232 
142.6999999919999900 0.148825 -118.320239 
142.9999999920000000 0.149412 -76.808889 
143.2999999920000100 0.149938 -35.309085 
143.5999999919999900 0.150448 6.177523 
143.8999999920000100 0.150892 47.647561 
144.1999999919999900 0.151302 89.092786 
144.4999999920000000 0.151652 130.521558 
144.7999999920000100 0.151958 171.927268 
145.0999999919999900 0.152210 -146.690688 
145.3999999920000100 0.152427 -105.330084 
145.6999999919999900 0.152567 -63.991054 
145.9999999920000000 0.152693 -22.673830 
146.2999999920000100 0.152747 18.627715 
146.5999999919999900 0.152756 59.910805 
146.8999999920000100 0.152718 101.182503 
147.1999999919999900 0.152664 142.450604 
147.4999999920000000 0.152573 -176.284264 
147.7999999920000100 0.152473 -135.024339 
148.0999999919999900 0.152358 -93.752615 
148.3999999920000100 0.152227 -52.483409 
148.6999999919999900 0.152074 -11.201123 
148.9999999920000000 0.151936 30.088903 
149.2999999920000100 0.151776 71.403833 
149.5999999919999900 0.151652 112.741378 
149.8999999920000100 0.151512 154.098162 
150.1999999919999900 0.151394 -164.523814 
150.4999999920000000 0.151260 -123.113777 
150.7999999920000100 0.151159 -81.676866 
151.0999999919999900 0.151028 -40.214528 
151.3999999920000100 0.150916 1.277484 
151.6999999919999900 0.150755 42.801503 
151.9999999920000000 0.150602 84.354095 
152.2999999920000100 0.150431 125.933579 
152.5999999919999900 0.150237 167.539044 
152.8999999920000100 0.149985 -150.825939 
153.1999999919999900 0.149708 -109.165357 
153.4999999920000000 0.149366 -67.481215 
153.7999999920000100 0.148981 -25.777699 
154.0999999919999900 0.148534 15.940956 
154.3999999920000100 0.148020 57.682832 
154.6999999919999900 0.147465 99.436510 
154.9999999920000000 0.146855 141.199093 
155.2999999920000100 0.146178 -177.023223 
155.5999999919999900 0.145480 -135.239026 
155.8999999920000100 0.144725 -93.451431 
156.1999999919999900 0.143951 -51.662914 
156.4999999920000000 0.143143 -9.876015 
156.7999999920000100 0.142331 31.906095 
157.0999999919999900 0.141498 73.678629 
157.3999999920000100 0.140682 115.443596 
157.6999999919999900 0.139821 157.202902 
157.9999999920000000 0.139024 -161.045014 
158.2999999920000100 0.138204 -119.301767 
158.5999999919999900 0.137416 -77.566417 
158.8999999920000100 0.136616 -35.843052 
159.1999999919999900 0.135831 5.877115 
159.4999999920000000 0.135046 47.594146 
159.7999999920000100 0.134234 89.312862 
160.0999999919999900 0.133388 131.049343 
160.3999999920000100 0.132537 172.800934 
160.6999999919999900 0.131615 -145.429713 
160.9999999920000000 0.130654 -103.628077 
161.2999999920000100 0.129582 -61.788796 
161.5999999919999900 0.128454 -19.904032 
161.8999999920000100 0.127215 22.028558 
162.1999999919999900 0.125869 64.022053 
162.4999999920000000 0.124404 106.091404 
162.7999999920000100 0.122852 148.224317 
163.0999999919999900 0.121202 -169.566113 
163.3999999920000100 0.119476 -127.294316 
163.6999999919999900 0.117664 -84.948352 
163.9999999920000000 0.115793 -42.540711 
164.2999999920000100 0.113873 -0.055664 
164.5999999919999900 0.111943 42.475423 
164.8999999920000100 0.109990 85.059784 
165.1999999919999900 0.108072 127.682529 
165.4999999920000000 0.106186 170.310620 
165.7999999920000100 0.104346 -147.047173 
166.0999999919999900 0.102556 -104.406856 
166.3999999920000100 0.100806 -61.786327 
166.6999999919999900 0.099163 -19.200281 
166.9999999920000000 0.097543 23.333635 
167.2999999920000100 0.095969 65.829159 
167.5999999919999900 0.094434 108.251243 
167.8999999920000100 0.092928 150.593820 
168.1999999919999900 0.091426 -167.143177 
168.4999999920000000 0.089904 -124.943623 
168.7999999920000100 0.088286 -82.819097 
169.0999999919999900 0.086661 -40.765977 
169.3999999920000100 0.084942 1.224899 
169.6999999919999900 0.083031 43.193260 
169.9999999920000000 0.080981 85.065563 
