!
! C:\Users\Solidworker\Documents\VNA\mmiller\20230816\20230816_20230801_ref4.S1P
!
! Touchstone 1.1 file saved by VNA.EXE V1.65 (www.ke5fx.com/gpib/readme.htm)
! 8/16/2023 3:02:28 PM
!
!    Source: HP8510C.07.10: Mar 30  1995 
!  Min freq: 1.100000E+011 Hz
!  Max freq: 1.700000E+011 Hz
!    Points: 201
!    Params: S11
!
!!!!!
# GHZ S MA R 50
109.9999999920000000 0.708039 48.905839 
110.2999999920000000 0.704933 88.293220 
110.5999999919999900 0.701938 127.716369 
110.8999999920000100 0.699695 167.078434 
111.1999999920000000 0.697175 -153.501123 
111.4999999920000000 0.695458 -114.151397 
111.7999999920000000 0.693911 -74.793947 
112.0999999919999900 0.693410 -35.482861 
112.3999999920000100 0.692475 3.805511 
112.6999999920000000 0.692684 43.100481 
112.9999999920000000 0.693208 82.390353 
113.2999999920000000 0.694604 121.667034 
113.5999999919999900 0.696082 160.957363 
113.8999999920000100 0.698134 -159.739141 
114.1999999920000000 0.700661 -120.408228 
114.4999999920000000 0.703521 -81.061094 
114.7999999920000000 0.706670 -41.656346 
115.0999999919999900 0.710271 -2.201367 
115.3999999920000100 0.713980 37.310721 
115.6999999920000000 0.717920 76.872304 
115.9999999920000000 0.721577 116.502198 
116.2999999920000000 0.725179 156.200802 
116.5999999919999900 0.728437 -164.028223 
116.8999999920000100 0.731323 -124.200678 
117.1999999920000000 0.733855 -84.298416 
117.4999999920000000 0.735749 -44.332847 
117.7999999920000000 0.737130 -4.309377 
118.0999999919999900 0.738186 35.766496 
118.3999999920000100 0.738628 75.888545 
118.6999999920000000 0.738326 116.048203 
118.9999999920000000 0.737633 156.233669 
119.2999999920000000 0.736400 -163.552974 
119.5999999919999900 0.734680 -123.305233 
119.8999999920000100 0.732621 -83.028034 
120.1999999920000000 0.730417 -42.744707 
120.4999999920000000 0.728107 -2.438228 
120.7999999920000000 0.725669 37.881960 
121.0999999919999900 0.723197 78.212578 
121.3999999920000100 0.720802 118.565931 
121.6999999920000000 0.718602 158.931042 
121.9999999920000000 0.716607 -160.676904 
122.2999999920000000 0.714803 -120.256442 
122.5999999919999900 0.713474 -79.805195 
122.8999999920000100 0.712562 -39.325491 
123.1999999920000000 0.712068 1.191032 
123.4999999920000000 0.711940 41.752451 
123.7999999920000000 0.712238 82.352145 
124.0999999919999900 0.712904 122.994152 
124.3999999920000100 0.713914 163.689243 
124.6999999920000000 0.715272 -155.560696 
124.9999999920000000 0.716923 -114.762877 
125.2999999920000000 0.718869 -73.908596 
125.5999999919999900 0.721079 -33.006075 
125.8999999920000100 0.723377 7.946533 
126.1999999920000000 0.725811 48.946651 
126.4999999920000000 0.728241 89.997600 
126.7999999920000000 0.730578 131.092717 
127.0999999919999900 0.732748 172.225591 
127.3999999920000100 0.734917 -146.593020 
127.6999999920000000 0.736786 -105.374591 
127.9999999920000000 0.738662 -64.119896 
128.2999999920000100 0.740176 -22.836293 
128.5999999919999900 0.741545 18.479689 
128.8999999920000100 0.742750 59.818290 
129.1999999919999900 0.743565 101.189103 
129.4999999920000000 0.744193 142.583115 
129.7999999920000100 0.744638 -176.004891 
130.0999999919999900 0.744956 -134.570134 
130.3999999920000100 0.745150 -93.115397 
130.6999999919999900 0.745316 -51.653824 
130.9999999920000000 0.745457 -10.174560 
131.2999999920000100 0.745589 31.312058 
131.5999999919999900 0.745822 72.806950 
131.8999999920000100 0.745999 114.306619 
132.1999999919999900 0.746307 155.811996 
132.4999999920000000 0.746714 -162.681040 
132.7999999920000100 0.747370 -121.171596 
133.0999999919999900 0.748076 -79.661915 
133.3999999920000100 0.749017 -38.158149 
133.6999999919999900 0.750148 3.344423 
133.9999999920000000 0.751347 44.845319 
134.2999999920000100 0.752633 86.340770 
134.5999999919999900 0.754003 127.843454 
134.8999999920000100 0.755386 169.348779 
135.1999999919999900 0.756824 -149.142034 
135.4999999920000000 0.758152 -107.624649 
135.7999999920000100 0.759437 -66.097593 
136.0999999919999900 0.760655 -24.554869 
136.3999999920000100 0.761846 17.002834 
136.6999999919999900 0.762661 58.582498 
136.9999999920000000 0.763346 100.187248 
137.2999999920000100 0.763847 141.819241 
137.5999999919999900 0.764110 -176.512734 
137.8999999920000100 0.764058 -134.813908 
138.1999999919999900 0.763918 -93.075464 
138.4999999920000000 0.763463 -51.299414 
138.7999999920000100 0.762954 -9.480784 
139.0999999919999900 0.762168 32.377936 
139.3999999920000100 0.761341 74.275751 
139.6999999919999900 0.760310 116.216395 
139.9999999920000000 0.759323 158.205431 
140.2999999920000100 0.758273 -159.774570 
140.5999999919999900 0.757296 -117.715419 
140.8999999920000100 0.756375 -75.625664 
141.1999999919999900 0.755649 -33.503957 
141.4999999920000000 0.755055 8.638057 
141.7999999920000100 0.754704 50.794541 
142.0999999919999900 0.754492 92.970033 
142.3999999920000100 0.754627 135.154014 
142.6999999919999900 0.754840 177.342108 
142.9999999920000000 0.755390 -140.471835 
143.2999999920000100 0.756129 -98.289041 
143.5999999919999900 0.757131 -56.115216 
143.8999999920000100 0.758258 -13.957381 
144.1999999919999900 0.759548 28.183662 
144.4999999920000000 0.760941 70.312941 
144.7999999920000100 0.762404 112.414686 
145.0999999919999900 0.763842 154.508897 
145.3999999920000100 0.765377 -163.419137 
145.6999999919999900 0.766732 -121.359944 
145.9999999920000000 0.768111 -79.314205 
146.2999999920000100 0.769356 -37.285356 
146.5999999919999900 0.770452 4.734992 
146.8999999920000100 0.771408 46.755320 
147.1999999919999900 0.772181 88.770339 
147.4999999920000000 0.772783 130.793210 
147.7999999920000100 0.773245 172.819727 
148.0999999919999900 0.773547 -145.140011 
148.3999999920000100 0.773708 -103.080838 
148.6999999919999900 0.773697 -61.005542 
148.9999999920000000 0.773640 -18.905953 
149.2999999920000100 0.773385 23.211358 
149.5999999919999900 0.773208 65.362898 
149.8999999920000100 0.772897 107.538515 
150.1999999919999900 0.772541 149.746984 
150.4999999920000000 0.772190 -168.008833 
150.7999999920000100 0.772026 -125.738301 
151.0999999919999900 0.771699 -83.430605 
151.3999999920000100 0.771540 -41.098087 
151.6999999919999900 0.771338 1.269552 
151.9999999920000000 0.771256 43.661294 
152.2999999920000100 0.771121 86.080942 
152.5999999919999900 0.771158 128.521704 
152.8999999920000100 0.771116 170.987999 
153.1999999919999900 0.771165 -146.525003 
153.4999999920000000 0.771136 -104.018646 
153.7999999920000100 0.771093 -61.503734 
154.0999999919999900 0.771061 -18.969204 
154.3999999920000100 0.770892 23.565218 
154.6999999919999900 0.770707 66.116525 
154.9999999920000000 0.770531 108.663861 
155.2999999920000100 0.770235 151.218147 
155.5999999919999900 0.770041 -166.225353 
155.8999999920000100 0.769679 -123.673687 
156.1999999919999900 0.769372 -81.126145 
156.4999999920000000 0.769064 -38.584888 
156.7999999920000100 0.768820 3.944485 
157.0999999919999900 0.768599 46.464018 
157.3999999920000100 0.768559 88.962510 
157.6999999919999900 0.768522 131.458387 
157.9999999920000000 0.768733 173.938368 
158.2999999920000100 0.768903 -143.589919 
158.5999999919999900 0.769236 -101.132959 
158.8999999920000100 0.769618 -58.680506 
159.1999999919999900 0.770010 -16.239221 
159.4999999920000000 0.770452 26.201695 
159.7999999920000100 0.770789 68.650597 
160.0999999919999900 0.771094 111.107024 
160.3999999920000100 0.771312 153.587023 
160.6999999919999900 0.771306 -163.909187 
160.9999999920000000 0.771140 -121.370125 
161.2999999920000100 0.770574 -78.784857 
161.5999999919999900 0.769895 -36.161292 
161.8999999920000100 0.768752 6.530587 
162.1999999919999900 0.767411 49.266987 
162.4999999920000000 0.765765 92.082895 
162.7999999920000100 0.763839 134.959536 
163.0999999919999900 0.761740 177.903800 
163.3999999920000100 0.759573 -139.082599 
163.6999999919999900 0.757396 -96.008766 
163.9999999920000000 0.755273 -52.899058 
164.2999999920000100 0.753451 -9.742738 
164.5999999919999900 0.751742 33.433314 
164.8999999920000100 0.750506 76.629409 
165.1999999919999900 0.749561 119.817507 
165.4999999920000000 0.749005 162.992185 
165.7999999920000100 0.748771 -153.869398 
166.0999999919999900 0.748871 -110.765102 
166.3999999920000100 0.749312 -67.730161 
166.6999999919999900 0.750331 -24.740963 
166.9999999920000000 0.751455 18.161222 
167.2999999920000100 0.752925 60.997725 
167.5999999919999900 0.754172 103.764649 
167.8999999920000100 0.755597 146.468462 
168.1999999919999900 0.757063 -170.882447 
168.4999999920000000 0.758303 -128.293214 
168.7999999920000100 0.758908 -85.733651 
169.0999999919999900 0.759836 -43.193521 
169.3999999920000100 0.760180 -0.646353 
169.6999999919999900 0.760471 41.919192 
169.9999999920000000 0.759711 84.606368 
