!
! C:\Users\Solidworker\Documents\VNA\mmiller\20230816\20230816_20230801_3.S1P
!
! Touchstone 1.1 file saved by VNA.EXE V1.65 (www.ke5fx.com/gpib/readme.htm)
! 8/16/2023 3:01:51 PM
!
!    Source: HP8510C.07.10: Mar 30  1995 
!  Min freq: 1.100000E+011 Hz
!  Max freq: 1.700000E+011 Hz
!    Points: 201
!    Params: S11
!
!!!!!
# GHZ S MA R 50
109.9999999920000000 0.107399 13.570302 
110.2999999920000000 0.105979 52.568721 
110.5999999919999900 0.104586 91.509029 
110.8999999920000100 0.103113 130.405641 
111.1999999920000000 0.101529 169.270586 
111.4999999920000000 0.099988 -151.892151 
111.7999999920000000 0.098324 -113.079501 
112.0999999919999900 0.096649 -74.318641 
112.3999999920000100 0.094821 -35.584032 
112.6999999920000000 0.092862 3.124863 
112.9999999920000000 0.090789 41.815073 
113.2999999920000000 0.088603 80.466304 
113.5999999919999900 0.086197 119.119624 
113.8999999920000100 0.083660 157.764386 
114.1999999920000000 0.080948 -163.555755 
114.4999999920000000 0.078108 -124.886109 
114.7999999920000000 0.075057 -86.179532 
115.0999999919999900 0.071895 -47.451360 
115.3999999920000100 0.068563 -8.691389 
115.6999999920000000 0.065145 30.130854 
115.9999999920000000 0.061575 68.990908 
116.2999999920000000 0.057969 107.944904 
116.5999999919999900 0.054281 146.971071 
116.8999999920000100 0.050596 -173.906206 
117.1999999920000000 0.046919 -134.673894 
117.4999999920000000 0.043292 -95.308697 
117.7999999920000000 0.039735 -55.812594 
118.0999999919999900 0.036313 -16.154161 
118.3999999920000100 0.032993 23.670057 
118.6999999920000000 0.029829 63.700379 
118.9999999920000000 0.026806 103.978899 
119.2999999920000000 0.023932 144.520701 
119.5999999919999900 0.021195 -174.606464 
119.8999999920000100 0.018619 -133.299131 
120.1999999920000000 0.016157 -91.373179 
120.4999999920000000 0.013843 -48.699513 
120.7999999920000000 0.011634 -4.831703 
121.0999999919999900 0.009559 40.924322 
121.3999999920000100 0.007666 89.919810 
121.6999999920000000 0.006094 144.328118 
121.9999999920000000 0.005140 -153.307767 
122.2999999920000000 0.005215 -86.120595 
122.5999999919999900 0.006389 -23.746912 
122.8999999920000100 0.008277 30.647042 
123.1999999920000000 0.010595 79.660553 
123.4999999920000000 0.013190 125.537913 
123.7999999920000000 0.016003 169.635611 
124.0999999919999900 0.018979 -147.379978 
124.3999999920000100 0.022108 -105.094919 
124.6999999920000000 0.025364 -63.274051 
124.9999999920000000 0.028728 -21.796117 
125.2999999920000000 0.032172 19.435035 
125.5999999919999900 0.035666 60.506719 
125.8999999920000100 0.039180 101.430829 
126.1999999920000000 0.042698 142.273169 
126.4999999920000000 0.046177 -176.952755 
126.7999999920000000 0.049601 -136.213702 
127.0999999919999900 0.052945 -95.511368 
127.3999999920000100 0.056194 -54.832404 
127.6999999920000000 0.059320 -14.174758 
127.9999999920000000 0.062321 26.481925 
128.2999999920000100 0.065169 67.124212 
128.5999999919999900 0.067877 107.775099 
128.8999999920000100 0.070434 148.431939 
129.1999999919999900 0.072847 -170.900713 
129.4999999920000000 0.075121 -130.227647 
129.7999999920000100 0.077281 -89.544650 
130.0999999919999900 0.079333 -48.862154 
130.3999999920000100 0.081296 -8.168502 
130.6999999919999900 0.083178 32.523190 
130.9999999920000000 0.085015 73.217277 
131.2999999920000100 0.086810 113.914682 
131.5999999919999900 0.088602 154.609940 
131.8999999920000100 0.090385 -164.698011 
132.1999999919999900 0.092191 -124.010951 
132.4999999920000000 0.094027 -83.334569 
132.7999999920000100 0.095916 -42.661349 
133.0999999919999900 0.097846 -2.004108 
133.3999999920000100 0.099844 38.652971 
133.6999999919999900 0.101884 79.301801 
133.9999999920000000 0.103989 119.949011 
134.2999999920000100 0.106132 160.598580 
134.5999999919999900 0.108321 -158.749399 
134.8999999920000100 0.110534 -118.088884 
135.1999999919999900 0.112776 -77.412130 
135.4999999920000000 0.115009 -36.724324 
135.7999999920000100 0.117242 3.985203 
136.0999999919999900 0.119448 44.720521 
136.3999999920000100 0.121615 85.489781 
136.6999999919999900 0.123712 126.292875 
136.9999999920000000 0.125754 167.133177 
137.2999999920000100 0.127712 -151.981378 
137.5999999919999900 0.129592 -111.053491 
137.8999999920000100 0.131357 -70.078447 
138.1999999919999900 0.133034 -29.055891 
138.4999999920000000 0.134578 12.015117 
138.7999999920000100 0.136044 53.131701 
139.0999999919999900 0.137380 94.299632 
139.3999999920000100 0.138633 135.513936 
139.6999999919999900 0.139771 176.773854 
139.9999999920000000 0.140828 -141.924099 
140.2999999920000100 0.141787 -100.585582 
140.5999999919999900 0.142678 -59.211729 
140.8999999920000100 0.143480 -17.809679 
141.1999999919999900 0.144237 23.617213 
141.4999999920000000 0.144916 65.051258 
141.7999999920000100 0.145573 106.508853 
142.0999999919999900 0.146156 147.968784 
142.3999999920000100 0.146720 -170.569521 
142.6999999919999900 0.147224 -129.113087 
142.9999999920000000 0.147698 -87.661254 
143.2999999920000100 0.148119 -46.230276 
143.5999999919999900 0.148526 -4.811792 
143.8999999920000100 0.148870 36.583596 
144.1999999919999900 0.149197 77.954546 
144.4999999920000000 0.149465 119.302295 
144.7999999920000100 0.149687 160.627681 
145.0999999919999900 0.149886 -158.067532 
145.3999999920000100 0.150036 -116.787855 
145.6999999919999900 0.150148 -75.531624 
145.9999999920000000 0.150232 -34.296544 
146.2999999920000100 0.150265 6.922961 
146.5999999919999900 0.150269 48.128149 
146.8999999920000100 0.150249 89.319178 
147.1999999919999900 0.150202 130.510219 
147.4999999920000000 0.150149 171.696987 
147.7999999920000100 0.150074 -147.112143 
148.0999999919999900 0.150000 -105.917373 
148.3999999920000100 0.149925 -64.712920 
148.6999999919999900 0.149830 -23.497416 
148.9999999920000000 0.149758 17.737113 
149.2999999920000100 0.149660 58.986653 
149.5999999919999900 0.149609 100.260690 
149.8999999920000100 0.149541 141.558419 
150.1999999919999900 0.149489 -177.115538 
150.4999999920000000 0.149417 -135.759241 
150.7999999920000100 0.149377 -94.376256 
151.0999999919999900 0.149297 -52.962342 
151.3999999920000100 0.149225 -11.522482 
151.6999999919999900 0.149107 29.949597 
151.9999999920000000 0.148980 71.453698 
152.2999999920000100 0.148823 112.991114 
152.5999999919999900 0.148626 154.554373 
152.8999999920000100 0.148384 -163.855494 
153.1999999919999900 0.148095 -122.235999 
153.4999999920000000 0.147746 -80.593628 
153.7999999920000100 0.147341 -38.929010 
154.0999999919999900 0.146876 2.759985 
154.3999999920000100 0.146343 44.466679 
154.6999999919999900 0.145769 86.191711 
154.9999999920000000 0.145139 127.930712 
155.2999999920000100 0.144450 169.679455 
155.5999999919999900 0.143750 -148.557747 
155.8999999920000100 0.142983 -106.791176 
156.1999999919999900 0.142207 -65.021542 
156.4999999920000000 0.141417 -23.253785 
156.7999999920000100 0.140613 18.509671 
157.0999999919999900 0.139813 60.267732 
157.3999999920000100 0.139010 102.018540 
157.6999999919999900 0.138194 143.758315 
157.9999999920000000 0.137419 -174.504328 
158.2999999920000100 0.136626 -132.776659 
158.5999999919999900 0.135864 -91.055354 
158.8999999920000100 0.135102 -49.346590 
159.1999999919999900 0.134334 -7.643651 
159.4999999920000000 0.133559 34.058618 
159.7999999920000100 0.132758 75.757737 
160.0999999919999900 0.131908 117.470613 
160.3999999920000100 0.131030 159.204399 
160.6999999919999900 0.130074 -159.040787 
160.9999999920000000 0.129072 -117.266328 
161.2999999920000100 0.127949 -75.454158 
161.5999999919999900 0.126750 -33.594889 
161.8999999920000100 0.125426 8.316900 
162.1999999919999900 0.124005 50.278155 
162.4999999920000000 0.122433 92.308875 
162.7999999920000100 0.120769 134.411322 
163.0999999919999900 0.118994 176.576050 
163.3999999920000100 0.117151 -141.188682 
163.6999999919999900 0.115221 -98.886634 
163.9999999920000000 0.113225 -56.521410 
164.2999999920000100 0.111176 -14.092036 
164.5999999919999900 0.109136 28.383495 
164.8999999920000100 0.107061 70.909771 
165.1999999919999900 0.105028 113.462554 
165.4999999920000000 0.103024 156.045909 
165.7999999920000100 0.101081 -161.387956 
166.0999999919999900 0.099188 -118.819388 
166.3999999920000100 0.097345 -76.287774 
166.6999999919999900 0.095607 -33.774397 
166.9999999920000000 0.093900 8.670950 
167.2999999920000100 0.092248 51.071181 
167.5999999919999900 0.090648 93.404124 
167.8999999920000100 0.089077 135.661056 
168.1999999919999900 0.087542 177.817358 
168.4999999920000000 0.085954 -140.107828 
168.7999999920000100 0.084363 -98.112882 
169.0999999919999900 0.082691 -56.161115 
169.3999999920000100 0.081000 -14.331398 
169.6999999919999900 0.079139 27.467965 
169.9999999920000000 0.077165 69.191676 
