!
! C:\Users\Solidworker\Documents\VNA\mmiller\20230801.S1P
!
! Touchstone 1.1 file saved by VNA.EXE V1.65 (www.ke5fx.com/gpib/readme.htm)
! 8/16/2023 2:55:39 PM
!
!    Source: HP8510C.07.10: Mar 30  1995 
!  Min freq: 1.100000E+011 Hz
!  Max freq: 1.700000E+011 Hz
!    Points: 201
!    Params: S11
!
!!!!!
# GHZ S MA R 50
109.9999999920000000 0.708196 57.712488 
110.2999999920000000 0.704721 97.064388 
110.5999999919999900 0.701827 136.442971 
110.8999999920000100 0.699115 175.796955 
111.1999999920000000 0.696767 -144.848852 
111.4999999920000000 0.694920 -105.480872 
111.7999999920000000 0.693519 -66.152198 
112.0999999919999900 0.692679 -26.854047 
112.3999999920000100 0.692053 12.437280 
112.6999999920000000 0.692303 51.728722 
112.9999999920000000 0.692857 91.012032 
113.2999999920000000 0.694339 130.297288 
113.5999999919999900 0.695985 169.594710 
113.8999999920000100 0.697956 -151.077039 
114.1999999920000000 0.700591 -111.734204 
114.4999999920000000 0.703577 -72.345463 
114.7999999920000000 0.706730 -32.909153 
115.0999999919999900 0.710360 6.574229 
115.3999999920000100 0.714063 46.122081 
115.6999999920000000 0.718004 85.722143 
115.9999999920000000 0.721704 125.399107 
116.2999999920000000 0.725233 165.133965 
116.5999999919999900 0.728350 -155.054174 
116.8999999920000100 0.731207 -115.182160 
117.1999999920000000 0.733638 -75.244065 
117.4999999920000000 0.735508 -35.241702 
117.7999999920000000 0.736763 4.816262 
118.0999999919999900 0.737685 44.921222 
118.3999999920000100 0.738058 85.063813 
118.6999999920000000 0.737576 125.247213 
118.9999999920000000 0.736822 165.451508 
119.2999999920000000 0.735419 -154.309011 
119.5999999919999900 0.733558 -114.047438 
119.8999999920000100 0.731477 -73.763030 
120.1999999920000000 0.729141 -33.467924 
120.4999999920000000 0.726737 6.844495 
120.7999999920000000 0.724264 47.170250 
121.0999999919999900 0.721690 87.508550 
121.3999999920000100 0.719322 127.865601 
121.6999999920000000 0.717048 168.239567 
121.9999999920000000 0.715017 -151.359877 
122.2999999920000000 0.713220 -110.928203 
122.5999999919999900 0.711894 -70.468274 
122.8999999920000100 0.711002 -29.974264 
123.1999999920000000 0.710521 10.560396 
123.4999999920000000 0.710436 51.130706 
123.7999999920000000 0.710812 91.751723 
124.0999999919999900 0.711453 132.420163 
124.3999999920000100 0.712587 173.142512 
124.6999999920000000 0.714008 -146.080363 
124.9999999920000000 0.715779 -105.256832 
125.2999999920000000 0.717865 -64.372874 
125.5999999919999900 0.720192 -23.438643 
125.8999999920000100 0.722611 17.545000 
126.1999999920000000 0.725166 58.575575 
126.4999999920000000 0.727743 99.653897 
126.7999999920000000 0.730256 140.774777 
127.0999999919999900 0.732539 -178.054270 
127.3999999920000100 0.734808 -136.847827 
127.6999999920000000 0.736887 -95.601745 
127.9999999920000000 0.738892 -54.319552 
128.2999999920000100 0.740545 -13.012842 
128.5999999919999900 0.742044 28.325175 
128.8999999920000100 0.743258 69.684057 
129.1999999919999900 0.744167 111.073609 
129.4999999920000000 0.744866 152.490077 
129.7999999920000100 0.745357 -166.074137 
130.0999999919999900 0.745680 -124.620109 
130.3999999920000100 0.745965 -83.143914 
130.6999999919999900 0.746051 -41.660399 
130.9999999920000000 0.746188 -0.161686 
131.2999999920000100 0.746215 41.345733 
131.5999999919999900 0.746411 82.864814 
131.8999999920000100 0.746526 124.387776 
132.1999999919999900 0.746740 165.919463 
132.4999999920000000 0.747093 -152.547330 
132.7999999920000100 0.747596 -111.007455 
133.0999999919999900 0.748220 -69.473222 
133.3999999920000100 0.749060 -27.935859 
133.6999999919999900 0.750085 13.596380 
133.9999999920000000 0.751226 55.128490 
134.2999999920000100 0.752421 96.658929 
134.5999999919999900 0.753678 138.190751 
134.8999999920000100 0.754983 179.726711 
135.1999999919999900 0.756399 -138.729483 
135.4999999920000000 0.757628 -97.184846 
135.7999999920000100 0.758991 -55.628160 
136.0999999919999900 0.760196 -14.058560 
136.3999999920000100 0.761344 27.524397 
136.6999999919999900 0.762201 69.129005 
136.9999999920000000 0.762858 110.749200 
137.2999999920000100 0.763340 152.406393 
137.5999999919999900 0.763668 -165.909889 
137.8999999920000100 0.763656 -124.193664 
138.1999999919999900 0.763467 -82.443195 
138.4999999920000000 0.763097 -40.655226 
138.7999999920000100 0.762549 1.169516 
139.0999999919999900 0.761782 43.037374 
139.3999999920000100 0.760958 84.942876 
139.6999999919999900 0.759931 126.893367 
139.9999999920000000 0.758937 168.880742 
140.2999999920000100 0.757885 -149.093223 
140.5999999919999900 0.756885 -107.030716 
140.8999999920000100 0.755901 -64.936156 
141.1999999919999900 0.755162 -22.809728 
141.4999999920000000 0.754484 19.338605 
141.7999999920000100 0.754078 61.503722 
142.0999999919999900 0.753860 103.686897 
142.3999999920000100 0.753847 145.880198 
142.6999999919999900 0.754094 -171.922694 
142.9999999920000000 0.754480 -129.720704 
143.2999999920000100 0.755161 -87.524024 
143.5999999919999900 0.756105 -45.336861 
143.8999999920000100 0.757255 -3.160358 
144.1999999919999900 0.758501 38.998587 
144.4999999920000000 0.759851 81.144491 
144.7999999920000100 0.761303 123.272190 
145.0999999919999900 0.762781 165.384427 
145.3999999920000100 0.764255 -152.522242 
145.6999999919999900 0.765655 -110.435766 
145.9999999920000000 0.767045 -68.372148 
146.2999999920000100 0.768274 -26.314667 
146.5999999919999900 0.769431 15.734070 
146.8999999920000100 0.770338 57.778797 
147.1999999919999900 0.771137 99.825402 
147.4999999920000000 0.771780 141.873056 
147.7999999920000100 0.772232 -176.070703 
148.0999999919999900 0.772610 -133.998170 
148.3999999920000100 0.772738 -91.910130 
148.6999999919999900 0.772725 -49.804168 
148.9999999920000000 0.772671 -7.676289 
149.2999999920000100 0.772494 34.476699 
149.5999999919999900 0.772280 76.657318 
149.8999999920000100 0.771988 118.868051 
150.1999999919999900 0.771756 161.110811 
150.4999999920000000 0.771489 -156.617194 
150.7999999920000100 0.771349 -114.306817 
151.0999999919999900 0.771181 -71.968723 
151.3999999920000100 0.771044 -29.605930 
151.6999999919999900 0.770883 12.785167 
151.9999999920000000 0.770862 55.208294 
152.2999999920000100 0.770874 97.653098 
152.5999999919999900 0.770883 140.118339 
152.8999999920000100 0.770971 -177.390951 
153.1999999919999900 0.771026 -134.881336 
153.4999999920000000 0.771009 -92.359227 
153.7999999920000100 0.770996 -49.826232 
154.0999999919999900 0.770890 -7.277785 
154.3999999920000100 0.770727 35.275270 
154.6999999919999900 0.770444 77.835024 
154.9999999920000000 0.770112 120.397974 
155.2999999920000100 0.769743 162.970257 
155.5999999919999900 0.769373 -154.463572 
155.8999999920000100 0.768907 -111.896004 
156.1999999919999900 0.768423 -69.337423 
156.4999999920000000 0.767971 -26.773791 
156.7999999920000100 0.767564 15.768597 
157.0999999919999900 0.767222 58.301422 
157.3999999920000100 0.766968 100.822587 
157.6999999919999900 0.766844 143.334403 
157.9999999920000000 0.766907 -174.169167 
158.2999999920000100 0.767046 -131.680865 
158.5999999919999900 0.767346 -89.206999 
158.8999999920000100 0.767774 -46.737847 
159.1999999919999900 0.768076 -4.283815 
159.4999999920000000 0.768667 38.170256 
159.7999999920000100 0.769066 80.622897 
160.0999999919999900 0.769509 123.088833 
160.3999999920000100 0.769874 165.566598 
160.6999999919999900 0.769982 -151.920564 
160.9999999920000000 0.769945 -109.380074 
161.2999999920000100 0.769510 -66.798428 
161.5999999919999900 0.768896 -24.172377 
161.8999999920000100 0.767949 18.505510 
162.1999999919999900 0.766588 61.245367 
162.4999999920000000 0.765052 104.052318 
162.7999999920000100 0.763079 146.930216 
163.0999999919999900 0.761057 -170.127105 
163.3999999920000100 0.758796 -127.116462 
163.6999999919999900 0.756622 -84.040834 
163.9999999920000000 0.754399 -40.920573 
164.2999999920000100 0.752408 2.243150 
164.5999999919999900 0.750739 45.429847 
164.8999999920000100 0.749387 88.641906 
165.1999999919999900 0.748294 131.842532 
165.4999999920000000 0.747736 175.038670 
165.7999999920000100 0.747554 -141.795351 
166.0999999919999900 0.747744 -98.671134 
166.3999999920000100 0.748202 -55.606663 
166.6999999919999900 0.749549 -12.607496 
166.9999999920000000 0.750605 30.318148 
167.2999999920000100 0.752285 73.177867 
167.5999999919999900 0.753731 115.971612 
167.8999999920000100 0.755379 158.690768 
168.1999999919999900 0.757064 -158.656218 
168.4999999920000000 0.758580 -116.049630 
168.7999999920000100 0.759507 -73.486649 
169.0999999919999900 0.760748 -30.949175 
169.3999999920000100 0.761624 11.601689 
169.6999999919999900 0.761888 54.173921 
169.9999999920000000 0.761365 96.837027 
