!
! C:\Users\Solidworker\Documents\VNA\mmiller\20230801\20230816_20230801_ref2.S1P
!
! Touchstone 1.1 file saved by VNA.EXE V1.65 (www.ke5fx.com/gpib/readme.htm)
! 8/16/2023 2:58:13 PM
!
!    Source: HP8510C.07.10: Mar 30  1995 
!  Min freq: 1.100000E+011 Hz
!  Max freq: 1.700000E+011 Hz
!    Points: 201
!    Params: S11
!
!!!!!
# GHZ S MA R 50
109.9999999920000000 0.708111 58.736416 
110.2999999920000000 0.704828 98.089403 
110.5999999919999900 0.701755 137.460316 
110.8999999920000100 0.699195 176.822391 
111.1999999920000000 0.696763 -143.795130 
111.4999999920000000 0.694992 -104.460946 
111.7999999920000000 0.693672 -65.134017 
112.0999999919999900 0.692904 -25.839388 
112.3999999920000100 0.692299 13.461643 
112.6999999920000000 0.692551 52.741286 
112.9999999920000000 0.693156 92.036136 
113.2999999920000000 0.694602 131.316404 
113.5999999919999900 0.696198 170.620252 
113.8999999920000100 0.698400 -150.059479 
114.1999999920000000 0.700981 -110.699390 
114.4999999920000000 0.703837 -71.324659 
114.7999999920000000 0.706973 -31.882952 
115.0999999919999900 0.710719 7.604725 
115.3999999920000100 0.714386 47.150054 
115.6999999920000000 0.718285 86.753332 
115.9999999920000000 0.721890 126.435363 
116.2999999920000000 0.725428 166.173038 
116.5999999919999900 0.728588 -154.010226 
116.8999999920000100 0.731401 -114.143812 
117.1999999920000000 0.733788 -74.197313 
117.4999999920000000 0.735538 -34.193137 
117.7999999920000000 0.736858 5.864309 
118.0999999919999900 0.737704 45.970455 
118.3999999920000100 0.737984 86.125564 
118.6999999920000000 0.737579 126.301883 
118.9999999920000000 0.736752 166.511743 
119.2999999920000000 0.735338 -153.250980 
119.5999999919999900 0.733458 -112.990113 
119.8999999920000100 0.731344 -72.703742 
120.1999999920000000 0.729099 -32.404242 
120.4999999920000000 0.726637 7.908223 
120.7999999920000000 0.724141 48.232112 
121.0999999919999900 0.721659 88.572744 
121.3999999920000100 0.719228 128.932413 
121.6999999920000000 0.717013 169.305595 
121.9999999920000000 0.715024 -150.290304 
122.2999999920000000 0.713229 -109.860789 
122.5999999919999900 0.711916 -69.396810 
122.8999999920000100 0.711047 -28.904850 
123.1999999920000000 0.710579 11.632781 
123.4999999920000000 0.710555 52.201853 
123.7999999920000000 0.710916 92.824700 
124.0999999919999900 0.711604 133.493429 
124.3999999920000100 0.712706 174.214949 
124.6999999920000000 0.714160 -145.010786 
124.9999999920000000 0.715944 -104.182548 
125.2999999920000000 0.717990 -63.297726 
125.5999999919999900 0.720346 -22.363502 
125.8999999920000100 0.722769 18.620083 
126.1999999920000000 0.725262 59.647769 
126.4999999920000000 0.727848 100.731372 
126.7999999920000000 0.730326 141.855817 
127.0999999919999900 0.732588 -176.974540 
127.3999999920000100 0.734859 -135.765558 
127.6999999920000000 0.736881 -94.520280 
127.9999999920000000 0.738911 -53.232324 
128.2999999920000100 0.740553 -11.922097 
128.5999999919999900 0.741960 29.421294 
128.8999999920000100 0.743206 70.787561 
129.1999999919999900 0.744118 112.179724 
129.4999999920000000 0.744809 153.596632 
129.7999999920000100 0.745293 -164.958262 
130.0999999919999900 0.745645 -123.498200 
130.3999999920000100 0.745866 -82.022405 
130.6999999919999900 0.745994 -40.532140 
130.9999999920000000 0.746140 0.970229 
131.2999999920000100 0.746194 42.483960 
131.5999999919999900 0.746417 84.008526 
131.8999999920000100 0.746553 125.535227 
132.1999999919999900 0.746813 167.069434 
132.4999999920000000 0.747191 -151.392712 
132.7999999920000100 0.747698 -109.849041 
133.0999999919999900 0.748376 -68.313132 
133.3999999920000100 0.749273 -26.773778 
133.6999999919999900 0.750323 14.762539 
133.9999999920000000 0.751422 56.296379 
134.2999999920000100 0.752649 97.827836 
134.5999999919999900 0.753914 139.359966 
134.8999999920000100 0.755250 -179.101681 
135.1999999919999900 0.756631 -137.559822 
135.4999999920000000 0.757894 -96.014075 
135.7999999920000100 0.759175 -54.454559 
136.0999999919999900 0.760364 -12.887237 
136.3999999920000100 0.761491 28.695305 
136.6999999919999900 0.762306 70.298501 
136.9999999920000000 0.762991 111.921418 
137.2999999920000100 0.763437 153.577321 
137.5999999919999900 0.763754 -164.737653 
137.8999999920000100 0.763747 -123.020793 
138.1999999919999900 0.763483 -81.270383 
138.4999999920000000 0.763080 -39.482556 
138.7999999920000100 0.762541 2.346425 
139.0999999919999900 0.761731 44.214375 
139.3999999920000100 0.760867 86.122489 
139.6999999919999900 0.759848 128.072573 
139.9999999920000000 0.758846 170.065300 
140.2999999920000100 0.757785 -147.908767 
140.5999999919999900 0.756767 -105.840981 
140.8999999920000100 0.755776 -63.743276 
141.1999999919999900 0.755100 -21.616078 
141.4999999920000000 0.754363 20.530274 
141.7999999920000100 0.753997 62.704811 
142.0999999919999900 0.753766 104.890327 
142.3999999920000100 0.753777 147.089716 
142.6999999919999900 0.754032 -170.709231 
142.9999999920000000 0.754501 -128.506713 
143.2999999920000100 0.755139 -86.306529 
143.5999999919999900 0.756117 -44.115327 
143.8999999920000100 0.757207 -1.935460 
144.1999999919999900 0.758528 40.226749 
144.4999999920000000 0.759893 82.374944 
144.7999999920000100 0.761327 124.510529 
145.0999999919999900 0.762852 166.623638 
145.3999999920000100 0.764290 -151.278709 
145.6999999919999900 0.765718 -109.188858 
145.9999999920000000 0.767109 -67.120461 
146.2999999920000100 0.768340 -25.059653 
146.5999999919999900 0.769457 16.991123 
146.8999999920000100 0.770383 59.038578 
147.1999999919999900 0.771196 101.085826 
147.4999999920000000 0.771844 143.135993 
147.7999999920000100 0.772248 -174.803315 
148.0999999919999900 0.772623 -132.730242 
148.3999999920000100 0.772784 -90.640341 
148.6999999919999900 0.772754 -48.535015 
148.9999999920000000 0.772674 -6.403914 
149.2999999920000100 0.772438 35.749769 
149.5999999919999900 0.772244 77.935604 
149.8999999920000100 0.771932 120.148335 
150.1999999919999900 0.771667 162.389821 
150.4999999920000000 0.771419 -155.331880 
150.7999999920000100 0.771201 -113.022048 
151.0999999919999900 0.770982 -70.687903 
151.3999999920000100 0.770877 -28.314121 
151.6999999919999900 0.770744 14.079711 
151.9999999920000000 0.770665 56.503118 
152.2999999920000100 0.770621 98.953518 
152.5999999919999900 0.770704 141.422393 
152.8999999920000100 0.770719 -176.085720 
153.1999999919999900 0.770788 -133.575441 
153.4999999920000000 0.770728 -91.048182 
153.7999999920000100 0.770763 -48.507191 
154.0999999919999900 0.770675 -5.959604 
154.3999999920000100 0.770468 36.598018 
154.6999999919999900 0.770180 79.160693 
154.9999999920000000 0.769886 121.725640 
155.2999999920000100 0.769537 164.296486 
155.5999999919999900 0.769205 -153.135053 
155.8999999920000100 0.768683 -110.565362 
156.1999999919999900 0.768236 -68.002907 
156.4999999920000000 0.767772 -25.444645 
156.7999999920000100 0.767376 17.098208 
157.0999999919999900 0.767033 59.633626 
157.3999999920000100 0.766784 102.151617 
157.6999999919999900 0.766637 144.659319 
157.9999999920000000 0.766719 -172.841043 
158.2999999920000100 0.766811 -130.354459 
158.5999999919999900 0.767095 -87.881943 
158.8999999920000100 0.767549 -45.418823 
159.1999999919999900 0.767841 -2.961685 
159.4999999920000000 0.768386 39.486819 
159.7999999920000100 0.768789 81.942588 
160.0999999919999900 0.769180 124.406313 
160.3999999920000100 0.769504 166.890764 
160.6999999919999900 0.769603 -150.602023 
160.9999999920000000 0.769616 -108.054884 
161.2999999920000100 0.769163 -65.474771 
161.5999999919999900 0.768619 -22.841933 
161.8999999920000100 0.767589 19.836168 
162.1999999919999900 0.766359 62.580869 
162.4999999920000000 0.764762 105.391076 
162.7999999920000100 0.762872 148.272070 
163.0999999919999900 0.760819 -168.779759 
163.3999999920000100 0.758681 -125.762192 
163.6999999919999900 0.756431 -82.684892 
163.9999999920000000 0.754295 -39.554773 
164.2999999920000100 0.752320 3.614172 
164.5999999919999900 0.750639 46.808843 
164.8999999920000100 0.749390 90.021003 
165.1999999919999900 0.748355 133.233569 
165.4999999920000000 0.747658 176.440591 
165.7999999920000100 0.747567 -140.386388 
166.0999999919999900 0.747878 -97.260150 
166.3999999920000100 0.748332 -54.182554 
166.6999999919999900 0.749401 -11.172196 
166.9999999920000000 0.750652 31.765138 
167.2999999920000100 0.752356 74.626044 
167.5999999919999900 0.753898 117.427021 
167.8999999920000100 0.755364 160.176291 
168.1999999919999900 0.757011 -157.161420 
168.4999999920000000 0.758528 -114.547165 
168.7999999920000100 0.759629 -71.961030 
169.0999999919999900 0.760537 -29.389565 
169.3999999920000100 0.761427 13.151764 
169.6999999919999900 0.761972 55.739664 
169.9999999920000000 0.761463 98.446402 
