!
! C:\Users\Solidworker\Documents\VNA\mmiller\20230816\20230816_20230801_ref3.S1P
!
! Touchstone 1.1 file saved by VNA.EXE V1.65 (www.ke5fx.com/gpib/readme.htm)
! 8/16/2023 3:01:08 PM
!
!    Source: HP8510C.07.10: Mar 30  1995 
!  Min freq: 1.100000E+011 Hz
!  Max freq: 1.700000E+011 Hz
!    Points: 201
!    Params: S11
!
!!!!!
# GHZ S MA R 50
109.9999999920000000 0.708142 53.458502 
110.2999999920000000 0.704555 92.815432 
110.5999999919999900 0.701799 132.229445 
110.8999999920000100 0.698970 171.614825 
111.1999999920000000 0.696745 -149.005252 
111.4999999920000000 0.694856 -109.642989 
111.7999999920000000 0.693556 -70.305307 
112.0999999919999900 0.692652 -30.994931 
112.3999999920000100 0.691983 8.306991 
112.6999999920000000 0.692195 47.598017 
112.9999999920000000 0.692880 86.897020 
113.2999999920000000 0.694137 126.173125 
113.5999999919999900 0.695694 165.476087 
113.8999999920000100 0.697686 -155.209455 
114.1999999920000000 0.700338 -115.869419 
114.4999999920000000 0.703161 -76.504751 
114.7999999920000000 0.706371 -37.084262 
115.0999999919999900 0.709968 2.389639 
115.3999999920000100 0.713813 41.920575 
115.6999999920000000 0.717717 81.502963 
115.9999999920000000 0.721410 121.158291 
116.2999999920000000 0.724959 160.880119 
116.5999999919999900 0.728240 -159.330702 
116.8999999920000100 0.731070 -119.485305 
117.1999999920000000 0.733635 -79.562768 
117.4999999920000000 0.735448 -39.580308 
117.7999999920000000 0.736902 0.469823 
118.0999999919999900 0.737811 40.554768 
118.3999999920000100 0.738208 80.690710 
118.6999999920000000 0.737815 120.859305 
118.9999999920000000 0.737164 161.055742 
119.2999999920000000 0.735756 -158.717134 
119.5999999919999900 0.734029 -118.459512 
119.8999999920000100 0.731969 -78.185039 
120.1999999920000000 0.729681 -37.888854 
120.4999999920000000 0.727269 2.414566 
120.7999999920000000 0.724804 42.740887 
121.0999999919999900 0.722288 83.069256 
121.3999999920000100 0.719918 123.423310 
121.6999999920000000 0.717642 163.791544 
121.9999999920000000 0.715613 -155.809021 
122.2999999920000000 0.713798 -115.387310 
122.5999999919999900 0.712528 -74.928688 
122.8999999920000100 0.711542 -34.448656 
123.1999999920000000 0.711035 6.083018 
123.4999999920000000 0.710936 46.638461 
123.7999999920000000 0.711328 87.253231 
124.0999999919999900 0.711914 127.902985 
124.3999999920000100 0.713046 168.610717 
124.6999999920000000 0.714381 -150.629448 
124.9999999920000000 0.716130 -109.813301 
125.2999999920000000 0.718118 -68.950074 
125.5999999919999900 0.720448 -28.032653 
125.8999999920000100 0.722781 12.936048 
126.1999999920000000 0.725300 53.948344 
126.4999999920000000 0.727785 95.008453 
126.7999999920000000 0.730228 136.119252 
127.0999999919999900 0.732490 177.270509 
127.3999999920000100 0.734709 -141.533459 
127.6999999920000000 0.736710 -100.306331 
127.9999999920000000 0.738588 -59.035836 
128.2999999920000100 0.740161 -17.742419 
128.5999999919999900 0.741589 23.588062 
128.8999999920000100 0.742795 64.936324 
129.1999999919999900 0.743711 106.320019 
129.4999999920000000 0.744336 147.725195 
129.7999999920000100 0.744833 -170.847973 
130.0999999919999900 0.745143 -129.402668 
130.3999999920000100 0.745386 -87.937592 
130.6999999919999900 0.745523 -46.461235 
130.9999999920000000 0.745693 -4.970248 
131.2999999920000100 0.745784 36.525717 
131.5999999919999900 0.746023 78.039636 
131.8999999920000100 0.746173 119.551016 
132.1999999919999900 0.746485 161.070986 
132.4999999920000000 0.746887 -157.408226 
132.7999999920000100 0.747493 -115.881916 
133.0999999919999900 0.748217 -74.361802 
133.3999999920000100 0.749159 -32.841386 
133.6999999919999900 0.750252 8.674933 
133.9999999920000000 0.751470 50.191450 
134.2999999920000100 0.752683 91.705378 
134.5999999919999900 0.754060 133.220689 
134.8999999920000100 0.755378 174.740394 
135.1999999919999900 0.756884 -143.733990 
135.4999999920000000 0.758163 -102.204611 
135.7999999920000100 0.759505 -60.664321 
136.0999999919999900 0.760716 -19.113127 
136.3999999920000100 0.761856 22.459030 
136.6999999919999900 0.762701 64.048062 
136.9999999920000000 0.763398 105.664124 
137.2999999920000100 0.763818 147.304244 
137.5999999919999900 0.764035 -171.019640 
137.8999999920000100 0.763999 -129.310341 
138.1999999919999900 0.763842 -87.565930 
138.4999999920000000 0.763327 -45.783981 
138.7999999920000100 0.762744 -3.957566 
139.0999999919999900 0.761928 37.903563 
139.3999999920000100 0.761048 79.814344 
139.6999999919999900 0.759994 121.761993 
139.9999999920000000 0.758939 163.754908 
140.2999999920000100 0.757814 -154.217126 
140.5999999919999900 0.756770 -112.148513 
140.8999999920000100 0.755771 -70.057017 
141.1999999919999900 0.755077 -27.927006 
141.4999999920000000 0.754316 14.220644 
141.7999999920000100 0.753979 56.389689 
142.0999999919999900 0.753719 98.571373 
142.3999999920000100 0.753755 140.765598 
142.6999999919999900 0.753970 -177.034868 
142.9999999920000000 0.754454 -134.839399 
143.2999999920000100 0.755141 -92.649875 
143.5999999919999900 0.756117 -50.463280 
143.8999999920000100 0.757195 -8.298284 
144.1999999919999900 0.758484 33.855027 
144.4999999920000000 0.759841 75.991666 
144.7999999920000100 0.761256 118.112207 
145.0999999919999900 0.762679 160.213550 
145.3999999920000100 0.764219 -157.705736 
145.6999999919999900 0.765569 -115.634500 
145.9999999920000000 0.767012 -73.576755 
146.2999999920000100 0.768181 -31.536819 
146.5999999919999900 0.769286 10.498179 
146.8999999920000100 0.770215 52.526224 
147.1999999919999900 0.770996 94.560989 
147.4999999920000000 0.771646 136.591276 
147.7999999920000100 0.772070 178.634240 
148.0999999919999900 0.772392 -139.313261 
148.3999999920000100 0.772550 -97.241520 
148.6999999919999900 0.772520 -55.150386 
148.9999999920000000 0.772518 -13.040931 
149.2999999920000100 0.772269 29.097266 
149.5999999919999900 0.772119 71.263559 
149.8999999920000100 0.771806 113.454121 
150.1999999919999900 0.771576 155.683392 
150.4999999920000000 0.771297 -162.059714 
150.7999999920000100 0.771178 -119.769913 
151.0999999919999900 0.770885 -77.452000 
151.3999999920000100 0.770851 -35.099427 
151.6999999919999900 0.770681 7.282047 
151.9999999920000000 0.770647 49.688363 
152.2999999920000100 0.770576 92.117569 
152.5999999919999900 0.770700 134.573270 
152.8999999920000100 0.770704 177.051606 
153.1999999919999900 0.770839 -140.448852 
153.4999999920000000 0.770809 -97.935374 
153.7999999920000100 0.770849 -55.408996 
154.0999999919999900 0.770740 -12.871337 
154.3999999920000100 0.770660 29.679591 
154.6999999919999900 0.770452 72.232504 
154.9999999920000000 0.770179 114.787983 
155.2999999920000100 0.769862 157.354631 
155.5999999919999900 0.769652 -160.086379 
155.8999999920000100 0.769207 -117.526790 
156.1999999919999900 0.768890 -74.969261 
156.4999999920000000 0.768522 -32.419713 
156.7999999920000100 0.768202 10.117547 
157.0999999919999900 0.767917 52.641459 
157.3999999920000100 0.767783 95.153808 
157.6999999919999900 0.767662 137.655220 
157.9999999920000000 0.767886 -179.856545 
158.2999999920000100 0.767996 -137.378507 
158.5999999919999900 0.768353 -94.910107 
158.8999999920000100 0.768694 -52.453602 
159.1999999919999900 0.769079 -10.004295 
159.4999999920000000 0.769523 32.439651 
159.7999999920000100 0.769947 74.886898 
160.0999999919999900 0.770208 117.349876 
160.3999999920000100 0.770522 159.829610 
160.6999999919999900 0.770459 -157.662944 
160.9999999920000000 0.770393 -115.123568 
161.2999999920000100 0.769816 -72.539071 
161.5999999919999900 0.769183 -29.912646 
161.8999999920000100 0.768072 12.776715 
162.1999999919999900 0.766722 55.514852 
162.4999999920000000 0.764970 98.331163 
162.7999999920000100 0.763079 141.214584 
163.0999999919999900 0.760886 -175.839232 
163.3999999920000100 0.758711 -132.822333 
163.6999999919999900 0.756447 -89.745736 
163.9999999920000000 0.754341 -46.614669 
164.2999999920000100 0.752341 -3.451077 
164.5999999919999900 0.750689 39.736978 
164.8999999920000100 0.749383 82.947336 
165.1999999919999900 0.748429 126.149842 
165.4999999920000000 0.747836 169.337543 
165.7999999920000100 0.747697 -147.497600 
166.0999999919999900 0.747990 -104.382091 
166.3999999920000100 0.748475 -61.334541 
166.6999999919999900 0.749585 -18.338314 
166.9999999920000000 0.750684 24.587567 
167.2999999920000100 0.752231 67.446648 
167.5999999919999900 0.753790 110.219937 
167.8999999920000100 0.755328 152.944228 
168.1999999919999900 0.756960 -164.405535 
168.4999999920000000 0.758171 -121.806639 
168.7999999920000100 0.759081 -79.237141 
169.0999999919999900 0.760062 -36.699199 
169.3999999920000100 0.760807 5.856950 
169.6999999919999900 0.761022 48.438205 
169.9999999920000000 0.760580 91.110459 
