!
! C:\Users\Solidworker\Documents\VNA\mmiller\20230816\20230816_20230801_2.S1P
!
! Touchstone 1.1 file saved by VNA.EXE V1.65 (www.ke5fx.com/gpib/readme.htm)
! 8/16/2023 3:00:17 PM
!
!    Source: HP8510C.07.10: Mar 30  1995 
!  Min freq: 1.100000E+011 Hz
!  Max freq: 1.700000E+011 Hz
!    Points: 201
!    Params: S11
!
!!!!!
# GHZ S MA R 50
109.9999999920000000 0.111312 143.860166 
110.2999999920000000 0.110050 -177.260179 
110.5999999919999900 0.108452 -138.209475 
110.8999999920000100 0.106708 -99.149494 
111.1999999920000000 0.104754 -60.034625 
111.4999999920000000 0.102648 -20.954041 
111.7999999920000000 0.100441 18.150063 
112.0999999919999900 0.098090 57.187524 
112.3999999920000100 0.095620 96.254874 
112.6999999920000000 0.093107 135.240688 
112.9999999920000000 0.090528 174.227187 
113.2999999920000000 0.087946 -146.808289 
113.5999999919999900 0.085298 -107.858008 
113.8999999920000100 0.082647 -68.952426 
114.1999999920000000 0.079991 -30.020420 
114.4999999920000000 0.077348 8.865827 
114.7999999920000000 0.074693 47.805838 
115.0999999919999900 0.072057 86.755730 
115.3999999920000100 0.069403 125.765385 
115.6999999920000000 0.066788 164.818356 
115.9999999920000000 0.064145 -156.025576 
116.2999999920000000 0.061501 -116.819348 
116.5999999919999900 0.058816 -77.502428 
116.8999999920000100 0.056115 -38.115988 
117.1999999920000000 0.053358 1.380548 
117.4999999920000000 0.050565 40.952931 
117.7999999920000000 0.047683 80.611899 
118.0999999919999900 0.044759 120.329369 
118.3999999920000100 0.041743 160.095408 
118.6999999920000000 0.038658 -160.120258 
118.9999999920000000 0.035467 -120.290259 
119.2999999920000000 0.032229 -80.506461 
119.5999999919999900 0.028910 -40.705842 
119.8999999920000100 0.025544 -1.031086 
120.1999999920000000 0.022118 38.513955 
120.4999999920000000 0.018668 77.837584 
120.7999999920000000 0.015199 116.793359 
121.0999999919999900 0.011729 155.074859 
121.3999999920000100 0.008272 -168.103174 
121.6999999920000000 0.004914 -135.672286 
121.9999999920000000 0.001950 -128.753888 
122.2999999920000000 0.002617 177.083900 
122.5999999919999900 0.005662 -162.976561 
122.8999999920000100 0.008823 -128.972939 
123.1999999920000000 0.011955 -91.924608 
123.4999999920000000 0.015011 -53.836680 
123.7999999920000000 0.018006 -15.268434 
124.0999999919999900 0.020898 23.554974 
124.3999999920000100 0.023734 62.535058 
124.6999999920000000 0.026487 101.651403 
124.9999999920000000 0.029178 140.871088 
125.2999999920000000 0.031805 -179.817890 
125.5999999919999900 0.034404 -140.388433 
125.8999999920000100 0.036966 -100.840312 
126.1999999920000000 0.039509 -61.159513 
126.4999999920000000 0.042041 -21.370826 
126.7999999920000000 0.044580 18.569062 
127.0999999919999900 0.047109 58.641586 
127.3999999920000100 0.049661 98.870802 
127.6999999920000000 0.052218 139.240713 
127.9999999920000000 0.054806 179.768699 
128.2999999920000100 0.057406 -139.566779 
128.5999999919999900 0.060057 -98.770372 
128.8999999920000100 0.062721 -57.861823 
129.1999999919999900 0.065430 -16.847064 
129.4999999920000000 0.068152 24.256039 
129.7999999920000100 0.070894 65.431783 
130.0999999919999900 0.073653 106.671390 
130.3999999920000100 0.076417 147.954596 
130.6999999919999900 0.079186 -170.729620 
130.9999999920000000 0.081948 -129.395433 
131.2999999920000100 0.084685 -88.061354 
131.5999999919999900 0.087406 -46.734844 
131.8999999920000100 0.090071 -5.419393 
132.1999999919999900 0.092675 35.869412 
132.4999999920000000 0.095215 77.131330 
132.7999999920000100 0.097683 118.363494 
133.0999999919999900 0.100052 159.561311 
133.3999999920000100 0.102353 -159.275252 
133.6999999919999900 0.104550 -118.147132 
133.9999999920000000 0.106666 -77.052684 
134.2999999920000100 0.108681 -35.989817 
134.5999999919999900 0.110588 5.040366 
134.8999999920000100 0.112400 46.046428 
135.1999999919999900 0.114129 87.032203 
135.4999999920000000 0.115757 128.006638 
135.7999999920000100 0.117316 168.973603 
136.0999999919999900 0.118796 -150.061141 
136.3999999920000100 0.120229 -109.090328 
136.6999999919999900 0.121589 -68.106798 
136.9999999920000000 0.122900 -27.109062 
137.2999999920000100 0.124165 13.914148 
137.5999999919999900 0.125389 54.964863 
137.8999999920000100 0.126576 96.054900 
138.1999999919999900 0.127736 137.184417 
138.4999999920000000 0.128853 178.354392 
138.7999999920000100 0.129992 -140.420039 
139.0999999919999900 0.131093 -99.148755 
139.3999999920000100 0.132205 -57.826900 
139.6999999919999900 0.133307 -16.457079 
139.9999999920000000 0.134421 24.965814 
140.2999999920000100 0.135535 66.435713 
140.5999999919999900 0.136661 107.955480 
140.8999999920000100 0.137791 149.512584 
141.1999999919999900 0.138959 -168.885635 
141.4999999920000000 0.140142 -127.250129 
141.7999999920000100 0.141365 -85.586122 
142.0999999919999900 0.142611 -43.898881 
142.3999999920000100 0.143889 -2.193948 
142.6999999919999900 0.145172 39.528178 
142.9999999920000000 0.146485 81.258364 
143.2999999920000100 0.147792 122.993177 
143.5999999919999900 0.149118 164.728689 
143.8999999920000100 0.150434 -153.538901 
144.1999999919999900 0.151747 -111.811029 
144.4999999920000000 0.153033 -70.086216 
144.7999999920000100 0.154277 -28.368493 
145.0999999919999900 0.155491 13.335985 
145.3999999920000100 0.156626 55.031059 
145.6999999919999900 0.157692 96.721008 
145.9999999920000000 0.158686 138.413705 
146.2999999920000100 0.159577 -179.898641 
146.5999999919999900 0.160379 -138.202941 
146.8999999920000100 0.161079 -96.505315 
147.1999999919999900 0.161686 -54.803321 
147.4999999920000000 0.162186 -13.085739 
147.7999999920000100 0.162568 28.645876 
148.0999999919999900 0.162828 70.395116 
148.3999999920000100 0.162991 112.170958 
148.6999999919999900 0.163034 153.966146 
148.9999999920000000 0.162997 -164.208588 
149.2999999920000100 0.162863 -122.358175 
149.5999999919999900 0.162682 -80.473634 
149.8999999920000100 0.162407 -38.570689 
150.1999999919999900 0.162077 3.370573 
150.4999999920000000 0.161693 45.331672 
150.7999999920000100 0.161286 87.323970 
151.0999999919999900 0.160797 129.338285 
151.3999999920000100 0.160297 171.377404 
151.6999999919999900 0.159748 -146.567963 
151.9999999920000000 0.159182 -104.497129 
152.2999999920000100 0.158590 -62.410520 
152.5999999919999900 0.157979 -20.312187 
152.8999999920000100 0.157326 21.788006 
153.1999999919999900 0.156638 63.897977 
153.4999999920000000 0.155911 106.009337 
153.7999999920000100 0.155141 148.118573 
154.0999999919999900 0.154339 -169.772161 
154.3999999920000100 0.153468 -127.663754 
154.6999999919999900 0.152550 -85.559759 
154.9999999920000000 0.151576 -43.459172 
155.2999999920000100 0.150548 -1.364820 
155.5999999919999900 0.149488 40.725145 
155.8999999920000100 0.148353 82.809217 
156.1999999919999900 0.147150 124.892245 
156.4999999920000000 0.145910 166.966529 
156.7999999920000100 0.144618 -150.957718 
157.0999999919999900 0.143293 -108.881617 
157.3999999920000100 0.141944 -66.804245 
157.6999999919999900 0.140546 -24.738428 
157.9999999920000000 0.139157 17.336237 
158.2999999920000100 0.137728 59.397663 
158.5999999919999900 0.136286 101.462809 
158.8999999920000100 0.134805 143.530262 
159.1999999919999900 0.133298 -174.393163 
159.4999999920000000 0.131796 -132.317196 
159.7999999920000100 0.130281 -90.228162 
160.0999999919999900 0.128741 -48.142008 
160.3999999920000100 0.127194 -6.039247 
160.6999999919999900 0.125597 36.069734 
160.9999999920000000 0.123992 78.201580 
161.2999999920000100 0.122332 120.348785 
161.5999999919999900 0.120655 162.517166 
161.8999999920000100 0.118939 -155.289294 
162.1999999919999900 0.117207 -113.064403 
162.4999999920000000 0.115437 -70.823795 
162.7999999920000100 0.113637 -28.545530 
163.0999999919999900 0.111813 13.758423 
163.3999999920000100 0.109994 56.100510 
163.6999999919999900 0.108176 98.474421 
163.9999999920000000 0.106371 140.881622 
164.2999999920000100 0.104600 -176.702986 
164.5999999919999900 0.102871 -134.257814 
164.8999999920000100 0.101171 -91.815015 
165.1999999919999900 0.099527 -49.350591 
165.4999999920000000 0.097947 -6.885048 
165.7999999920000100 0.096437 35.582467 
166.0999999919999900 0.095007 78.019165 
166.3999999920000100 0.093604 120.465190 
166.6999999919999900 0.092324 162.881261 
166.9999999920000000 0.091093 -154.710886 
167.2999999920000100 0.089932 -112.332151 
167.5999999919999900 0.088795 -69.961372 
167.8999999920000100 0.087693 -27.601714 
168.1999999919999900 0.086687 14.766408 
168.4999999920000000 0.085748 57.117287 
168.7999999920000100 0.084724 99.506006 
169.0999999919999900 0.083787 141.872662 
169.3999999920000100 0.082834 -175.650064 
169.6999999919999900 0.081784 -133.127896 
169.9999999920000000 0.080648 -90.363159 
