!
! C:\Users\Solidworker\Documents\VNA\mmiller\20230816\20230816_20230801_4.S1P
!
! Touchstone 1.1 file saved by VNA.EXE V1.65 (www.ke5fx.com/gpib/readme.htm)
! 8/16/2023 3:03:09 PM
!
!    Source: HP8510C.07.10: Mar 30  1995 
!  Min freq: 1.100000E+011 Hz
!  Max freq: 1.700000E+011 Hz
!    Points: 201
!    Params: S11
!
!!!!!
# GHZ S MA R 50
109.9999999920000000 0.109294 142.888526 
110.2999999920000000 0.108123 -178.218802 
110.5999999919999900 0.106564 -139.219840 
110.8999999920000100 0.104751 -100.162448 
111.1999999920000000 0.102808 -61.099234 
111.4999999920000000 0.100684 -22.039244 
111.7999999920000000 0.098414 17.009821 
112.0999999919999900 0.096060 56.031004 
112.3999999920000100 0.093584 95.030132 
112.6999999920000000 0.091035 134.001705 
112.9999999920000000 0.088432 172.915756 
113.2999999920000000 0.085815 -148.156062 
113.5999999919999900 0.083167 -109.272682 
113.8999999920000100 0.080481 -70.397873 
114.1999999920000000 0.077809 -31.534629 
114.4999999920000000 0.075131 7.310124 
114.7999999920000000 0.072461 46.197686 
115.0999999919999900 0.069800 85.109196 
115.3999999920000100 0.067139 124.073349 
115.6999999920000000 0.064492 163.100468 
115.9999999920000000 0.061832 -157.791947 
116.2999999920000000 0.059165 -118.598370 
116.5999999919999900 0.056472 -79.314015 
116.8999999920000100 0.053733 -39.945663 
117.1999999920000000 0.050973 -0.433071 
117.4999999920000000 0.048145 39.131289 
117.7999999920000000 0.045263 78.766306 
118.0999999919999900 0.042325 118.481044 
118.3999999920000100 0.039311 158.220798 
118.6999999920000000 0.036211 -162.002150 
118.9999999920000000 0.033034 -122.242958 
119.2999999920000000 0.029798 -82.526538 
119.5999999919999900 0.026489 -42.859685 
119.8999999920000100 0.023138 -3.378931 
120.1999999920000000 0.019740 35.877780 
120.4999999920000000 0.016314 74.678484 
120.7999999920000000 0.012885 112.776779 
121.0999999919999900 0.009475 149.351258 
121.3999999920000100 0.006148 -177.961965 
121.6999999920000000 0.003152 -160.334075 
121.9999999920000000 0.002393 164.877038 
122.2999999920000000 0.004938 167.544107 
122.5999999919999900 0.008026 -162.872493 
122.8999999920000100 0.011155 -127.566949 
123.1999999920000000 0.014241 -90.305027 
123.4999999920000000 0.017265 -52.237581 
123.7999999920000000 0.020217 -13.717654 
124.0999999919999900 0.023078 25.042216 
124.3999999920000100 0.025874 63.946850 
124.6999999920000000 0.028592 102.985872 
124.9999999920000000 0.031249 142.120422 
125.2999999920000000 0.033852 -178.631071 
125.5999999919999900 0.036414 -139.274686 
125.8999999920000100 0.038953 -99.805481 
126.1999999920000000 0.041476 -60.211647 
126.4999999920000000 0.043997 -20.486278 
126.7999999920000000 0.046523 19.362768 
127.0999999919999900 0.049051 59.366365 
127.3999999920000100 0.051593 99.522570 
127.6999999920000000 0.054156 139.828578 
127.9999999920000000 0.056754 -179.715013 
128.2999999920000100 0.059369 -139.116596 
128.5999999919999900 0.062023 -98.376294 
128.8999999920000100 0.064708 -57.520386 
129.1999999919999900 0.067432 -16.555812 
129.4999999920000000 0.070170 24.502992 
129.7999999920000100 0.072927 65.637651 
130.0999999919999900 0.075693 106.845000 
130.3999999920000100 0.078472 148.098541 
130.6999999919999900 0.081246 -170.612418 
130.9999999920000000 0.084016 -129.297276 
131.2999999920000100 0.086754 -87.979048 
131.5999999919999900 0.089473 -46.665388 
131.8999999920000100 0.092131 -5.362172 
132.1999999919999900 0.094724 35.921515 
132.4999999920000000 0.097244 77.176207 
132.7999999920000100 0.099686 118.404852 
133.0999999919999900 0.102026 159.599410 
133.3999999920000100 0.104287 -159.238153 
133.6999999919999900 0.106451 -118.109686 
133.9999999920000000 0.108517 -77.018967 
134.2999999920000100 0.110474 -35.960171 
134.5999999919999900 0.112332 5.069356 
134.8999999920000100 0.114087 46.070242 
135.1999999919999900 0.115746 87.052915 
135.4999999920000000 0.117313 128.022864 
135.7999999920000100 0.118801 168.983771 
136.0999999919999900 0.120208 -150.058455 
136.3999999920000100 0.121578 -109.096700 
136.6999999919999900 0.122869 -68.124268 
136.9999999920000000 0.124111 -27.135265 
137.2999999920000100 0.125309 13.878027 
137.5999999919999900 0.126486 54.918512 
137.8999999920000100 0.127605 95.995582 
138.1999999919999900 0.128713 137.112566 
138.4999999920000000 0.129781 178.275190 
138.7999999920000100 0.130882 -140.514730 
139.0999999919999900 0.131936 -99.254231 
139.3999999920000100 0.133014 -57.943053 
139.6999999919999900 0.134084 -16.579957 
139.9999999920000000 0.135162 24.832065 
140.2999999920000100 0.136248 66.295017 
140.5999999919999900 0.137347 107.805899 
140.8999999920000100 0.138454 149.360856 
141.1999999919999900 0.139609 -169.040074 
141.4999999920000000 0.140762 -127.407457 
141.7999999920000100 0.141971 -85.740870 
142.0999999919999900 0.143192 -44.056627 
142.3999999920000100 0.144454 -2.345890 
142.6999999919999900 0.145718 39.378259 
142.9999999920000000 0.147006 81.112092 
143.2999999920000100 0.148288 122.849552 
143.5999999919999900 0.149605 164.588807 
143.8999999920000100 0.150896 -153.668131 
144.1999999919999900 0.152190 -111.933148 
144.4999999920000000 0.153445 -70.205526 
144.7999999920000100 0.154669 -28.482795 
145.0999999919999900 0.155853 13.226715 
145.3999999920000100 0.156978 54.930415 
145.6999999919999900 0.158014 96.623689 
145.9999999920000000 0.158982 138.320684 
146.2999999920000100 0.159851 -179.986344 
146.5999999919999900 0.160614 -138.290761 
146.8999999920000100 0.161283 -96.589810 
147.1999999919999900 0.161857 -54.885846 
147.4999999920000000 0.162325 -13.165561 
147.7999999920000100 0.162672 28.561543 
148.0999999919999900 0.162906 70.310780 
148.3999999920000100 0.163034 112.086714 
148.6999999919999900 0.163029 153.878648 
148.9999999920000000 0.162958 -164.296697 
149.2999999920000100 0.162783 -122.449161 
149.5999999919999900 0.162565 -80.573040 
149.8999999920000100 0.162246 -38.667805 
150.1999999919999900 0.161877 3.266545 
150.4999999920000000 0.161446 45.225927 
150.7999999920000100 0.160980 87.212840 
151.0999999919999900 0.160460 129.225663 
151.3999999920000100 0.159922 171.262979 
151.6999999919999900 0.159314 -146.685112 
151.9999999920000000 0.158708 -104.615429 
152.2999999920000100 0.158065 -62.535771 
152.5999999919999900 0.157405 -20.442921 
152.8999999920000100 0.156699 21.657398 
153.1999999919999900 0.155967 63.764610 
153.4999999920000000 0.155193 105.871493 
153.7999999920000100 0.154367 147.979930 
154.0999999919999900 0.153510 -169.915959 
154.3999999920000100 0.152588 -127.812180 
154.6999999919999900 0.151616 -85.711630 
154.9999999920000000 0.150588 -43.617432 
155.2999999920000100 0.149505 -1.529367 
155.5999999919999900 0.148384 40.559605 
155.8999999920000100 0.147194 82.638484 
156.1999999919999900 0.145934 124.717781 
156.4999999920000000 0.144628 166.789956 
156.7999999920000100 0.143288 -151.136814 
157.0999999919999900 0.141905 -109.060329 
157.3999999920000100 0.140499 -66.988107 
157.6999999919999900 0.139057 -24.924219 
157.9999999920000000 0.137625 17.146153 
158.2999999920000100 0.136148 59.207491 
158.5999999919999900 0.134647 101.272997 
158.8999999920000100 0.133131 143.336618 
159.1999999919999900 0.131590 -174.593824 
159.4999999920000000 0.130045 -132.517777 
159.7999999920000100 0.128490 -90.435485 
160.0999999919999900 0.126919 -48.350587 
160.3999999920000100 0.125335 -6.258927 
160.6999999919999900 0.123712 35.842659 
160.9999999920000000 0.122077 77.960766 
161.2999999920000100 0.120379 120.093717 
161.5999999919999900 0.118675 162.250562 
161.8999999920000100 0.116922 -155.568876 
162.1999999919999900 0.115154 -113.367560 
162.4999999920000000 0.113347 -71.140037 
162.7999999920000100 0.111511 -28.881552 
163.0999999919999900 0.109649 13.403389 
163.3999999920000100 0.107787 55.728962 
163.6999999919999900 0.105917 98.076697 
163.9999999920000000 0.104072 140.462787 
164.2999999920000100 0.102259 -177.132578 
164.5999999919999900 0.100490 -134.701636 
164.8999999920000100 0.098748 -92.262655 
165.1999999919999900 0.097076 -49.810442 
165.4999999920000000 0.095455 -7.356482 
165.7999999920000100 0.093912 35.098031 
166.0999999919999900 0.092455 77.542987 
166.3999999920000100 0.091042 119.974761 
166.6999999919999900 0.089752 162.395230 
166.9999999920000000 0.088508 -155.205545 
167.2999999920000100 0.087312 -112.812039 
167.5999999919999900 0.086167 -70.443601 
167.8999999920000100 0.085085 -28.091982 
168.1999999919999900 0.084066 14.275229 
168.4999999920000000 0.083116 56.628650 
168.7999999920000100 0.082096 98.998369 
169.0999999919999900 0.081165 141.376781 
169.3999999920000100 0.080220 -176.160917 
169.6999999919999900 0.079181 -133.665781 
169.9999999920000000 0.078029 -90.949612 
